
T2460 000:480 SEGGER J-Link V4.40c Log File (0001ms, 0477ms total)
T2460 000:480 DLL Compiled: Jan 24 2012 09:30:33 (0001ms, 0477ms total)
T2460 000:480 Logging started @ 2013-09-19 18:23 (0001ms, 0477ms total)
T2460 000:481 JLINK_SetWarnOutHandler(...) (0001ms, 0478ms total)
T2460 000:482 JLINK_OpenEx(...)
Firmware: J-Link ARM V8 compiled Dec  6 2011 18:57:44
Hardware: V8.00
S/N: 805306163
Feature(s): RDI,FlashDL,FlashBP,JFlash,GDBFull  returns O.K. (0208ms, 0479ms total)
T2460 000:690 JLINK_SetErrorOutHandler(...) (0000ms, 0687ms total)
T2460 000:691 JLINK_ExecCommand("Device = STM32F407VG", ...)
                JLINK_ExecCommand("map ram 0x20000000 - 0x2001FFFF", ...)  returns 0x00 (0000ms, 0000ms total)
                JLINK_AddMirrorAreaEx(Addr = 0x00000000, Size = 0x00000000) (0000ms, 0000ms total)
              Device "STM32F407VG" selected (1024 KB flash, 128 KB RAM).  returns 0x00 (0003ms, 0687ms total)
T2460 000:696 JLINK_ExecCommand("ProjectFile = "E:\datang\¹«Â·ºâÆ÷\bak.TeamWork\app\DT3102-ZC\V2.1\prj\JLinkSettings.ini"", ...)  returns 0x00 (0002ms, 0690ms total)
T2460 000:700 JLINK_ExecCommand("DisableConnectionTimeout", ...)  returns 0x00 (0000ms, 0692ms total)
T2460 000:701 JLINK_TIF_Select(JLINKARM_TIF_JTAG)  returns 0x00 (0000ms, 0692ms total)
T2460 000:702 JLINK_SetSpeed(2000) (0000ms, 0693ms total)
T2460 000:702 JLINK_GetHardwareVersion()  returns 0x13880 (0000ms, 0693ms total)
T2460 000:702 JLINK_GetDLLVersion()  returns 44003 (0000ms, 0693ms total)
T2460 000:702 JLINK_GetFirmwareString(...) (0000ms, 0693ms total)
T2460 000:703 JLINK_GetDLLVersion()  returns 44003 (0000ms, 0693ms total)
T2460 000:703 JLINK_GetCompileDateTime() (0000ms, 0693ms total)
T2460 000:703 JLINK_GetFirmwareString(...) (0000ms, 0693ms total)
T2460 000:703 JLINK_GetHardwareVersion()  returns 0x13880 (0000ms, 0693ms total)
T2460 000:703 JLINK_GetIdData(...) >0x2F8 JTAG>TotalIRLen = 9, IRPrint = 0x0011 >0x30 JTAG> >0x210 JTAG> >0x80 JTAG> >0x40 JTAG> >0x40 JTAG> >0x50 JTAG> >0x40 JTAG> >0x40 JTAG> >0x40 JTAG> >0x50 JTAG> >0x40 JTAG> >0x50 JTAG> >0x40 JTAG> >0x40 JTAG> >0x40 JTAG> >0x30 JTAG> >0x40 JTAG> >0x50 JTAG> >0x40 JTAG> >0x38 JTAG> >0x80 JTAG> >0x40 JTAG> >0x40 JTAG> >0x50 JTAG> >0x40 JTAG> >0x40 JTAG> >0x40 JTAG> >0x50 JTAG> >0x40 JTAG> >0x40 JTAG> >0x30 JTAG> >0x40 JTAG> >0x40 JTAG> >0x40 JTAG> >0x40 JTAG>
 >0x40 JTAG> >0x50 JTAG> >0x40 JTAG> >0x80 JTAG> >0x40 JTAG> >0x30 JTAG> >0x40 JTAG> >0x40 JTAG> >0x40 JTAG> >0x40 JTAG> >0x40 JTAG> >0x50 JTAG> >0x40 JTAG> >0x80 JTAG> >0x40 JTAG> >0x30 JTAG> >0x40 JTAG> >0x50 JTAG> >0x40 JTAG> >0x40 JTAG> >0x40 JTAG> >0x30 JTAG> >0x40 JTAG> >0x50 JTAG> >0x40 JTAG>Found Cortex-M4 r0p1, Little endian. >0x50 JTAG> >0x50 JTAG> >0x40 JTAG> >0x40 JTAG> >0x30 JTAG> >0x30 JTAG> >0x50 JTAG> >0x40 JTAG> >0x80 JTAG> >0x40 JTAG> >0x30 JTAG> >0x40 JTAG> >0x50 JTAG> >0x40 JTAG>
 >0x40 JTAG> >0x40 JTAG> >0x30 JTAG> >0x40 JTAG> >0x50 JTAG> >0x40 JTAG>TPIU fitted. >0x40 JTAG> >0x40 JTAG> >0x30 JTAG> >0x40 JTAG> >0x50 JTAG> >0x40 JTAG>ETM fitted. >0x40 JTAG> >0x40 JTAG> >0x30 JTAG> >0x40 JTAG> >0x50 JTAG> >0x40 JTAG> >0x40 JTAG> >0x40 JTAG> >0x30 JTAG> >0x40 JTAG> >0x50 JTAG> >0x40 JTAG>  FPUnit: 6 code (BP) slots and 2 literal slots >0x40 JTAG> >0x40 JTAG> >0x30 JTAG> >0x40 JTAG> >0x50 JTAG> >0x40 JTAG> >0x40 JTAG> >0x40 JTAG> >0x30 JTAG> >0x40 JTAG> >0x50 JTAG> >0x40 JTAG>
 ScanLen=9 NumDevices=2 aId[0]=0x4BA00477 aIrRead[0]=0 aScanLen[0]=0 aScanRead[0]=0 (0145ms, 0693ms total)
T2460 000:848 JLINK_JTAG_GetDeviceID(DeviceIndex = 0)  returns 0x4BA00477 (0000ms, 0838ms total)
T2460 000:848 JLINK_JTAG_GetDeviceInfo(DeviceIndex = 0)  returns 0x00 (0000ms, 0838ms total)
T2460 000:848 JLINK_JTAG_GetDeviceID(DeviceIndex = 1)  returns 0x6413041 (0000ms, 0838ms total)
T2460 000:848 JLINK_JTAG_GetDeviceInfo(DeviceIndex = 1)  returns 0x00 (0000ms, 0838ms total)
T2460 000:848 JLINK_GetDebugInfo(0x100) -- Value=0xE00FF003  returns 0x00 (0000ms, 0838ms total)
T2460 000:848 JLINK_ReadMem (0xE00FFFF0, 0x0010 Bytes, ...) -- CPU is running -- CPU_ReadMem(16 bytes @ 0xE00FFFF0) -- Data:  0D 00 00 00 10 00 00 00 05 00 00 00 B1 00 00 00  returns 0x00 (0005ms, 0838ms total)
T2460 000:853 JLINK_ReadMem (0xE00FFFD0, 0x0020 Bytes, ...) -- CPU is running -- CPU_ReadMem(32 bytes @ 0xE00FFFD0) -- Data:  00 00 00 00 00 00 00 00 00 00 00 00 00 00 00 00 ...  returns 0x00 (0002ms, 0843ms total)
T2460 000:855 JLINK_ReadMem (0xE00FF000, 0x0018 Bytes, ...) -- CPU is running -- CPU_ReadMem(24 bytes @ 0xE00FF000) -- Data:  03 F0 F0 FF 03 20 F0 FF 03 30 F0 FF 03 10 F0 FF ...  returns 0x00 (0002ms, 0845ms total)
T2460 000:857 JLINK_ReadMemU32(0xE000ED00, 0x0001 Items, ...) -- CPU is running -- CPU_ReadMem(4 bytes @ 0xE000ED00) -- Data:  41 C2 0F 41  returns 0x01 (0001ms, 0847ms total)
T2460 000:858 JLINK_ReadMemU32(0xE000EF40, 0x0001 Items, ...) -- CPU is running -- CPU_ReadMem(4 bytes @ 0xE000EF40) -- Data:  21 00 11 10  returns 0x01 (0002ms, 0848ms total)
T2460 000:860 JLINK_ReadMemU32(0xE000EF44, 0x0001 Items, ...) -- CPU is running -- CPU_ReadMem(4 bytes @ 0xE000EF44) -- Data:  11 00 00 11  returns 0x01 (0001ms, 0850ms total)
T2460 000:861 JLINK_SetResetType(JLINKARM_RESET_TYPE_NORMAL)  returns JLINKARM_RESET_TYPE_NORMAL (0000ms, 0851ms total)
T2460 000:861 JLINK_Reset() >0x308 JTAG>TotalIRLen = 9, IRPrint = 0x0011 >0x30 JTAG> >0x210 JTAG> >0x80 JTAG> >0x40 JTAG> >0x40 JTAG> >0x50 JTAG> >0x40 JTAG> >0x40 JTAG> >0x40 JTAG> >0x50 JTAG> >0x40 JTAG> >0x50 JTAG> >0x40 JTAG> >0x40 JTAG> >0x40 JTAG> >0x30 JTAG> >0x40 JTAG> >0x50 JTAG> >0x40 JTAG> >0x38 JTAG> >0x80 JTAG> >0x40 JTAG> >0x40 JTAG> >0x50 JTAG> >0x40 JTAG> >0x40 JTAG> >0x40 JTAG> >0x50 JTAG> >0x40 JTAG> >0x40 JTAG> >0x30 JTAG> >0x40 JTAG> >0x40 JTAG> >0x40 JTAG> >0x40 JTAG> >0x40 JTAG>
 >0x50 JTAG> >0x40 JTAG> >0x80 JTAG> >0x40 JTAG> >0x30 JTAG> >0x40 JTAG> >0x40 JTAG> >0x40 JTAG> >0x40 JTAG> >0x40 JTAG> >0x50 JTAG> >0x40 JTAG> >0x80 JTAG> >0x40 JTAG> >0x30 JTAG> >0x40 JTAG> >0x50 JTAG> >0x40 JTAG> >0x40 JTAG> >0x40 JTAG> >0x30 JTAG> >0x40 JTAG> >0x50 JTAG> >0x40 JTAG>Found Cortex-M4 r0p1, Little endian. >0x50 JTAG> >0x50 JTAG> >0x40 JTAG> >0x40 JTAG> >0x30 JTAG> >0x30 JTAG> >0x50 JTAG> >0x40 JTAG> >0x80 JTAG> >0x40 JTAG> >0x30 JTAG> >0x40 JTAG> >0x50 JTAG> >0x40 JTAG> >0x40 JTAG>
 >0x40 JTAG> >0x30 JTAG> >0x40 JTAG> >0x50 JTAG> >0x40 JTAG>TPIU fitted. >0x40 JTAG> >0x40 JTAG> >0x30 JTAG> >0x40 JTAG> >0x50 JTAG> >0x40 JTAG>ETM fitted. >0x40 JTAG> >0x40 JTAG> >0x30 JTAG> >0x40 JTAG> >0x50 JTAG> >0x40 JTAG> >0x40 JTAG> >0x40 JTAG> >0x30 JTAG> >0x40 JTAG> >0x50 JTAG> >0x40 JTAG>  FPUnit: 6 code (BP) slots and 2 literal slots >0x40 JTAG> >0x40 JTAG> >0x30 JTAG> >0x40 JTAG> >0x50 JTAG> >0x40 JTAG> >0x40 JTAG> >0x40 JTAG> >0x30 JTAG> >0x40 JTAG> >0x50 JTAG> >0x40 JTAG> >0x48 JTAG>
 >0x80 JTAG> >0x40 JTAG> >0x40 JTAG> >0x50 JTAG> >0x40 JTAG> >0x40 JTAG> >0x40 JTAG> >0x50 JTAG> >0x40 JTAG> >0x40 JTAG> >0x30 JTAG> >0x40 JTAG> >0x40 JTAG> >0x40 JTAG> >0x40 JTAG> >0x40 JTAG> >0x50 JTAG> >0x40 JTAG> >0x80 JTAG> >0x40 JTAG> >0x30 JTAG> >0x40 JTAG> >0x40 JTAG> >0x40 JTAG> >0x40 JTAG> >0x40 JTAG> >0x50 JTAG> >0x40 JTAG> >0x80 JTAG> >0x40 JTAG> >0x30 JTAG> >0x40 JTAG> >0x50 JTAG> >0x40 JTAG> >0x40 JTAG> >0x40 JTAG> >0x30 JTAG> >0x40 JTAG> >0x50 JTAG> >0x40 JTAG>
Found Cortex-M4 r0p1, Little endian. >0x50 JTAG> >0x50 JTAG> >0x40 JTAG> >0x40 JTAG> >0x30 JTAG> >0x30 JTAG> >0x50 JTAG> >0x40 JTAG> >0x80 JTAG> >0x40 JTAG> >0x30 JTAG> >0x40 JTAG> >0x50 JTAG> >0x40 JTAG> >0x40 JTAG> >0x40 JTAG> >0x30 JTAG> >0x40 JTAG> >0x50 JTAG> >0x40 JTAG>TPIU fitted. >0x40 JTAG> >0x40 JTAG> >0x30 JTAG> >0x40 JTAG> >0x50 JTAG> >0x40 JTAG>ETM fitted. >0x40 JTAG> >0x40 JTAG> >0x30 JTAG> >0x40 JTAG> >0x50 JTAG> >0x40 JTAG> >0x40 JTAG> >0x40 JTAG> >0x30 JTAG> >0x40 JTAG> >0x50 JTAG>
 >0x40 JTAG>  FPUnit: 6 code (BP) slots and 2 literal slots >0x40 JTAG> >0x40 JTAG> >0x30 JTAG> >0x40 JTAG> >0x50 JTAG> >0x40 JTAG> >0x40 JTAG> >0x40 JTAG> >0x30 JTAG> >0x40 JTAG> >0x50 JTAG> >0x40 JTAG> -- CPU is running -- CPU_WriteMem(4 bytes @ 0xE000EDF0) -- CPU is running -- CPU_WriteMem(4 bytes @ 0xE000EDFC) -- CPU is running -- CPU_WriteMem(4 bytes @ 0xE000ED0C) -- CPU is running -- CPU_ReadMem(4 bytes @ 0xE000EDF0) -- CPU is running -- CPU_ReadMem(4 bytes @ 0xE000EDF0) -- CPU is running
 -- CPU_WriteMem(4 bytes @ 0xE000EDF0) -- CPU is running -- CPU_WriteMem(4 bytes @ 0xE000EDFC) -- CPU is running -- CPU_ReadMem(4 bytes @ 0xE000EDF0) >0x90 JTAG> >0x40 JTAG> >0x30 JTAG> >0x40 JTAG> >0x50 JTAG> >0x40 JTAG> -- CPU_WriteMem(4 bytes @ 0xE000EDFC) -- CPU_WriteMem(4 bytes @ 0xE0001028) -- CPU_WriteMem(4 bytes @ 0xE0001038) -- CPU_WriteMem(4 bytes @ 0xE0001048) -- CPU_WriteMem(4 bytes @ 0xE0001058) (0286ms, 0851ms total)
T2460 001:148 JLINK_ReadReg(R15)  returns 0x08000284 (0002ms, 1137ms total)
T2460 001:150 JLINK_ReadReg(XPSR)  returns 0x01000000 (0000ms, 1139ms total)
T2460 001:150 JLINK_Halt()  returns 0x00 (0000ms, 1139ms total)
T2460 001:150 JLINK_IsHalted()  returns TRUE (0000ms, 1139ms total)
T2460 001:150 JLINK_ReadMemU32(0xE000EDF0, 0x0001 Items, ...) -- CPU_ReadMem(4 bytes @ 0xE000EDF0) -- Data:  03 00 03 00  returns 0x01 (0001ms, 1139ms total)
T2460 001:151 JLINK_WriteU32(0xE000EDF0, 0xA05F0003) -- CPU_WriteMem(4 bytes @ 0xE000EDF0)  returns 0x00 (0002ms, 1140ms total)
T2460 001:153 JLINK_WriteU32(0xE000EDFC, 0x01000000) -- CPU_WriteMem(4 bytes @ 0xE000EDFC)  returns 0x00 (0001ms, 1142ms total)
T2460 001:155 JLINK_GetHWStatus(...)  returns 0x00 (0001ms, 1143ms total)
T2460 001:156 JLINK_GetNumBPUnits(Type = 0xFFFFFF00)  returns 0x06 (0000ms, 1144ms total)
T2460 001:156 JLINK_GetNumBPUnits(Type = 0xF0)  returns 0x2000 (0000ms, 1144ms total)
T2460 001:156 JLINK_GetNumWPUnits()  returns 0x04 (0000ms, 1144ms total)
T2460 001:156 JLINK_GetSpeed()  returns 0x7D0 (0000ms, 1144ms total)
T2460 001:156 JLINK_ReadMemU32(0xE000E004, 0x0001 Items, ...) -- CPU_ReadMem(4 bytes @ 0xE000E004) -- Data:  02 00 00 00  returns 0x01 (0002ms, 1144ms total)
T2460 001:158 JLINK_ReadMemU32(0xE000E004, 0x0001 Items, ...) -- CPU_ReadMem(4 bytes @ 0xE000E004) -- Data:  02 00 00 00  returns 0x01 (0001ms, 1146ms total)
T2460 001:159 JLINK_WriteMem(0xE0001000, 0x001C Bytes, ...) -- Data:  01 00 00 00 00 00 00 00 00 00 00 00 00 00 00 00 ... -- CPU_WriteMem(28 bytes @ 0xE0001000)  returns 0x1C (0002ms, 1147ms total)
T2460 001:161 JLINK_ReadMem (0xE0001000, 0x001C Bytes, ...) -- CPU_ReadMem(28 bytes @ 0xE0001000) -- Data:  01 00 00 40 00 00 00 00 00 00 00 00 00 00 00 00 ...  returns 0x00 (0002ms, 1149ms total)
T2460 001:163 JLINK_ReadReg(R15)  returns 0x08000284 (0000ms, 1151ms total)
T2460 001:163 JLINK_ReadReg(XPSR)  returns 0x01000000 (0000ms, 1151ms total)
T2460 001:373 JLINK_SetResetType(JLINKARM_RESET_TYPE_NORMAL)  returns JLINKARM_RESET_TYPE_NORMAL (0000ms, 1151ms total)
T2460 001:373 JLINK_Reset() >0x2F8 JTAG>TotalIRLen = 9, IRPrint = 0x0011 >0x30 JTAG> >0x210 JTAG> >0x80 JTAG> >0x40 JTAG> >0x40 JTAG> >0x50 JTAG> >0x40 JTAG> >0x40 JTAG> >0x40 JTAG> >0x50 JTAG> >0x40 JTAG> >0x50 JTAG> >0x40 JTAG> >0x40 JTAG> >0x40 JTAG> >0x30 JTAG> >0x40 JTAG> >0x50 JTAG> >0x40 JTAG> >0x38 JTAG> >0x80 JTAG> >0x40 JTAG> >0x40 JTAG> >0x50 JTAG> >0x40 JTAG> >0x40 JTAG> >0x40 JTAG> >0x50 JTAG> >0x40 JTAG> >0x40 JTAG> >0x30 JTAG> >0x40 JTAG> >0x40 JTAG> >0x40 JTAG> >0x40 JTAG> >0x40 JTAG>
 >0x50 JTAG> >0x40 JTAG> >0x80 JTAG> >0x40 JTAG> >0x30 JTAG> >0x40 JTAG> >0x40 JTAG> >0x40 JTAG> >0x40 JTAG> >0x40 JTAG> >0x50 JTAG> >0x40 JTAG> >0x80 JTAG> >0x40 JTAG> >0x30 JTAG> >0x40 JTAG> >0x50 JTAG> >0x40 JTAG> >0x40 JTAG> >0x40 JTAG> >0x30 JTAG> >0x40 JTAG> >0x50 JTAG> >0x40 JTAG>Found Cortex-M4 r0p1, Little endian. >0x50 JTAG> >0x50 JTAG> >0x40 JTAG> >0x40 JTAG> >0x30 JTAG> >0x30 JTAG> >0x50 JTAG> >0x40 JTAG> >0x80 JTAG> >0x40 JTAG> >0x30 JTAG> >0x40 JTAG> >0x50 JTAG> >0x40 JTAG> >0x40 JTAG>
 >0x40 JTAG> >0x30 JTAG> >0x40 JTAG> >0x50 JTAG> >0x40 JTAG>TPIU fitted. >0x40 JTAG> >0x40 JTAG> >0x30 JTAG> >0x40 JTAG> >0x50 JTAG> >0x40 JTAG>ETM fitted. >0x40 JTAG> >0x40 JTAG> >0x30 JTAG> >0x40 JTAG> >0x50 JTAG> >0x40 JTAG> >0x40 JTAG> >0x40 JTAG> >0x30 JTAG> >0x40 JTAG> >0x50 JTAG> >0x40 JTAG>  FPUnit: 6 code (BP) slots and 2 literal slots >0x40 JTAG> >0x40 JTAG> >0x30 JTAG> >0x40 JTAG> >0x50 JTAG> >0x40 JTAG> >0x40 JTAG> >0x40 JTAG> >0x30 JTAG> >0x40 JTAG> >0x50 JTAG> >0x40 JTAG> >0x48 JTAG>
 >0x80 JTAG> >0x40 JTAG> >0x40 JTAG> >0x50 JTAG> >0x40 JTAG> >0x40 JTAG> >0x40 JTAG> >0x50 JTAG> >0x40 JTAG> >0x40 JTAG> >0x30 JTAG> >0x40 JTAG> >0x40 JTAG> >0x40 JTAG> >0x40 JTAG> >0x40 JTAG> >0x50 JTAG> >0x40 JTAG> >0x80 JTAG> >0x40 JTAG> >0x30 JTAG> >0x40 JTAG> >0x40 JTAG> >0x40 JTAG> >0x40 JTAG> >0x40 JTAG> >0x50 JTAG> >0x40 JTAG> >0x80 JTAG> >0x40 JTAG> >0x30 JTAG> >0x40 JTAG> >0x50 JTAG> >0x40 JTAG> >0x40 JTAG> >0x40 JTAG> >0x30 JTAG> >0x40 JTAG> >0x50 JTAG> >0x40 JTAG>
Found Cortex-M4 r0p1, Little endian. >0x50 JTAG> >0x50 JTAG> >0x40 JTAG> >0x40 JTAG> >0x30 JTAG> >0x30 JTAG> >0x50 JTAG> >0x40 JTAG> >0x80 JTAG> >0x40 JTAG> >0x30 JTAG> >0x40 JTAG> >0x50 JTAG> >0x40 JTAG> >0x40 JTAG> >0x40 JTAG> >0x30 JTAG> >0x40 JTAG> >0x50 JTAG> >0x40 JTAG>TPIU fitted. >0x40 JTAG> >0x40 JTAG> >0x30 JTAG> >0x40 JTAG> >0x50 JTAG> >0x40 JTAG>ETM fitted. >0x40 JTAG> >0x40 JTAG> >0x30 JTAG> >0x40 JTAG> >0x50 JTAG> >0x40 JTAG> >0x40 JTAG> >0x40 JTAG> >0x30 JTAG> >0x40 JTAG> >0x50 JTAG>
 >0x40 JTAG>  FPUnit: 6 code (BP) slots and 2 literal slots >0x40 JTAG> >0x40 JTAG> >0x30 JTAG> >0x40 JTAG> >0x50 JTAG> >0x40 JTAG> >0x40 JTAG> >0x40 JTAG> >0x30 JTAG> >0x40 JTAG> >0x50 JTAG> >0x40 JTAG> -- CPU_WriteMem(4 bytes @ 0xE000EDF0) -- CPU_WriteMem(4 bytes @ 0xE000EDFC) -- CPU_WriteMem(4 bytes @ 0xE000ED0C) -- CPU_ReadMem(4 bytes @ 0xE000EDF0) -- CPU_ReadMem(4 bytes @ 0xE000EDF0) -- CPU_WriteMem(4 bytes @ 0xE000EDF0) -- CPU_WriteMem(4 bytes @ 0xE000EDFC) -- CPU is running
 -- CPU_ReadMem(4 bytes @ 0xE000EDF0) >0x90 JTAG> >0x40 JTAG> >0x30 JTAG> >0x40 JTAG> >0x50 JTAG> >0x40 JTAG> -- CPU_WriteMem(4 bytes @ 0xE000EDFC) -- CPU_WriteMem(4 bytes @ 0xE0001028) -- CPU_WriteMem(4 bytes @ 0xE0001038) -- CPU_WriteMem(4 bytes @ 0xE0001048) -- CPU_WriteMem(4 bytes @ 0xE0001058) (0288ms, 1151ms total)
T2460 001:661 JLINK_ReadReg(R15)  returns 0x08000284 (0000ms, 1439ms total)
T2460 001:661 JLINK_ReadReg(XPSR)  returns 0x01000000 (0000ms, 1439ms total)
T2460 001:661 JLINK_ReadMemU32(0xE0001004, 0x0001 Items, ...) -- CPU_ReadMem(4 bytes @ 0xE0001004) -- Data:  00 00 00 00  returns 0x01 (0001ms, 1439ms total)
T2460 001:663 JLINK_ReadMem (0x08000284, 0x003C Bytes, ...) -- CPU_ReadMem(64 bytes @ 0x08000280) -- Updating C cache (64 bytes @ 0x08000280) -- Read from C cache (60 bytes @ 0x08000284) -- Data:  09 48 80 47 09 48 00 47 FE E7 FE E7 FE E7 FE E7 ...  returns 0x00 (0002ms, 1440ms total)
T1B90 002:899 JLINK_SetBPEx(Addr = 0x0804BEC4, Type = 0xFFFFFFF2)  returns 0x00000001 (0001ms, 1442ms total)
T1B90 002:900 JLINK_SetBPEx(Addr = 0x0802718A, Type = 0xFFFFFFF2)  returns 0x00000002 (0000ms, 1443ms total)
T1B90 002:900 JLINK_Go() -- CPU_WriteMem(4 bytes @ 0xE0002000) -- CPU_WriteMem(4 bytes @ 0xE0002008) -- CPU_WriteMem(4 bytes @ 0xE000200C) -- CPU_WriteMem(4 bytes @ 0xE0002010) -- CPU_WriteMem(4 bytes @ 0xE0002014) -- CPU_WriteMem(4 bytes @ 0xE0002018) -- CPU_WriteMem(4 bytes @ 0xE000201C) (0016ms, 1443ms total)
T1B90 003:016 JLINK_IsHalted()  returns FALSE (0001ms, 1459ms total)
T1B90 003:117 JLINK_IsHalted()  returns FALSE (0001ms, 1459ms total)
T1B90 003:218 JLINK_IsHalted()  returns TRUE (0007ms, 1459ms total)
T1B90 003:225 JLINK_Halt()  returns 0x00 (0000ms, 1459ms total)
T1B90 003:225 JLINK_IsHalted()  returns TRUE (0000ms, 1459ms total)
T1B90 003:225 JLINK_IsHalted()  returns TRUE (0000ms, 1459ms total)
T1B90 003:225 JLINK_IsHalted()  returns TRUE (0000ms, 1459ms total)
T1B90 003:225 JLINK_ReadReg(R15)  returns 0x0804BEC4 (0000ms, 1459ms total)
T1B90 003:225 JLINK_ReadReg(XPSR)  returns 0x61000000 (0000ms, 1459ms total)
T1B90 003:225 JLINK_ClrBPEx(BPHandle = 0x00000001)  returns 0x00 (0000ms, 1459ms total)
T1B90 003:225 JLINK_ClrBPEx(BPHandle = 0x00000002)  returns 0x00 (0000ms, 1459ms total)
T1B90 003:225 JLINK_ReadMemU32(0xE000ED30, 0x0001 Items, ...) -- CPU_ReadMem(4 bytes @ 0xE000ED30) -- Data:  03 00 00 00  returns 0x01 (0002ms, 1459ms total)
T1B90 003:227 JLINK_ReadMemU32(0xE0001028, 0x0001 Items, ...) -- CPU_ReadMem(4 bytes @ 0xE0001028) -- Data:  00 00 00 00  returns 0x01 (0002ms, 1461ms total)
T1B90 003:229 JLINK_ReadMemU32(0xE0001038, 0x0001 Items, ...) -- CPU_ReadMem(4 bytes @ 0xE0001038) -- Data:  00 02 00 00  returns 0x01 (0001ms, 1463ms total)
T1B90 003:230 JLINK_ReadMemU32(0xE0001048, 0x0001 Items, ...) -- CPU_ReadMem(4 bytes @ 0xE0001048) -- Data:  00 00 00 00  returns 0x01 (0002ms, 1464ms total)
T1B90 003:232 JLINK_ReadMemU32(0xE0001058, 0x0001 Items, ...) -- CPU_ReadMem(4 bytes @ 0xE0001058) -- Data:  00 00 00 00  returns 0x01 (0002ms, 1466ms total)
T1B90 003:234 JLINK_ReadReg(R0)  returns 0x20010C78 (0000ms, 1468ms total)
T1B90 003:234 JLINK_ReadReg(R1)  returns 0x20010E78 (0000ms, 1468ms total)
T1B90 003:234 JLINK_ReadReg(R2)  returns 0x20010E78 (0000ms, 1468ms total)
T1B90 003:234 JLINK_ReadReg(R3)  returns 0x20010E78 (0000ms, 1468ms total)
T1B90 003:234 JLINK_ReadReg(R4)  returns 0x00000000 (0000ms, 1468ms total)
T1B90 003:235 JLINK_ReadReg(R5)  returns 0x20010C18 (0000ms, 1468ms total)
T1B90 003:235 JLINK_ReadReg(R6)  returns 0x00000000 (0000ms, 1468ms total)
T1B90 003:235 JLINK_ReadReg(R7)  returns 0x00000000 (0000ms, 1468ms total)
T1B90 003:235 JLINK_ReadReg(R8)  returns 0x00000000 (0000ms, 1468ms total)
T1B90 003:235 JLINK_ReadReg(R9)  returns 0x00000000 (0000ms, 1468ms total)
T1B90 003:235 JLINK_ReadReg(R10)  returns 0x08055084 (0000ms, 1468ms total)
T1B90 003:235 JLINK_ReadReg(R11)  returns 0x00000000 (0000ms, 1468ms total)
T1B90 003:235 JLINK_ReadReg(R12)  returns 0x20010C58 (0000ms, 1468ms total)
T1B90 003:235 JLINK_ReadReg(R13)  returns 0x20011278 (0000ms, 1468ms total)
T1B90 003:235 JLINK_ReadReg(R14)  returns 0x08020307 (0000ms, 1468ms total)
T1B90 003:235 JLINK_ReadReg(R15)  returns 0x0804BEC4 (0000ms, 1468ms total)
T1B90 003:235 JLINK_ReadReg(XPSR)  returns 0x61000000 (0000ms, 1468ms total)
T1B90 003:235 JLINK_ReadReg(MSP)  returns 0x20011278 (0000ms, 1468ms total)
T1B90 003:235 JLINK_ReadReg(PSP)  returns 0x00000000 (0000ms, 1468ms total)
T1B90 003:235 JLINK_ReadReg(CFBP)  returns 0x04000000 (0000ms, 1468ms total)
T1B90 003:235 JLINK_ReadReg(FPSCR)  returns 0x03000000 (0010ms, 1468ms total)
T1B90 003:245 JLINK_ReadReg(FPS0)  returns 0x00000000 (0000ms, 1478ms total)
T1B90 003:245 JLINK_ReadReg(FPS1)  returns 0x00000000 (0000ms, 1478ms total)
T1B90 003:245 JLINK_ReadReg(FPS2)  returns 0x00000000 (0000ms, 1478ms total)
T1B90 003:245 JLINK_ReadReg(FPS3)  returns 0x00000000 (0000ms, 1478ms total)
T1B90 003:245 JLINK_ReadReg(FPS4)  returns 0x00000000 (0000ms, 1478ms total)
T1B90 003:245 JLINK_ReadReg(FPS5)  returns 0x00000000 (0000ms, 1478ms total)
T1B90 003:245 JLINK_ReadReg(FPS6)  returns 0x00000000 (0000ms, 1478ms total)
T1B90 003:245 JLINK_ReadReg(FPS7)  returns 0x00000000 (0000ms, 1478ms total)
T1B90 003:245 JLINK_ReadReg(FPS8)  returns 0x00000000 (0000ms, 1478ms total)
T1B90 003:245 JLINK_ReadReg(FPS9)  returns 0x00000000 (0000ms, 1478ms total)
T1B90 003:245 JLINK_ReadReg(FPS10)  returns 0x00000000 (0000ms, 1478ms total)
T1B90 003:245 JLINK_ReadReg(FPS11)  returns 0x00000000 (0000ms, 1478ms total)
T1B90 003:245 JLINK_ReadReg(FPS12)  returns 0x00000000 (0000ms, 1478ms total)
T1B90 003:245 JLINK_ReadReg(FPS13)  returns 0x00000000 (0000ms, 1478ms total)
T1B90 003:245 JLINK_ReadReg(FPS14)  returns 0x00000000 (0000ms, 1478ms total)
T1B90 003:245 JLINK_ReadReg(FPS15)  returns 0x00000000 (0000ms, 1478ms total)
T1B90 003:245 JLINK_ReadReg(FPS16)  returns 0x00000000 (0000ms, 1478ms total)
T1B90 003:245 JLINK_ReadReg(FPS17)  returns 0x00000000 (0000ms, 1478ms total)
T1B90 003:245 JLINK_ReadReg(FPS18)  returns 0x00000000 (0000ms, 1478ms total)
T1B90 003:245 JLINK_ReadReg(FPS19)  returns 0x00000000 (0000ms, 1478ms total)
T1B90 003:245 JLINK_ReadReg(FPS20)  returns 0x00000000 (0000ms, 1478ms total)
T1B90 003:245 JLINK_ReadReg(FPS31)  returns 0x00000000 (0000ms, 1478ms total)
T1B90 003:245 JLINK_ReadReg(FPS7)  returns 0x00000000 (0000ms, 1478ms total)
T1B90 003:245 JLINK_ReadReg(FPS8)  returns 0x00000000 (0001ms, 1478ms total)
T1B90 003:246 JLINK_ReadReg(FPS9)  returns 0x00000000 (0000ms, 1479ms total)
T1B90 003:246 JLINK_ReadReg(FPS10)  returns 0x00000000 (0000ms, 1479ms total)
T1B90 003:246 JLINK_ReadReg(FPS11)  returns 0x00000000 (0000ms, 1479ms total)
T1B90 003:246 JLINK_ReadReg(FPS12)  returns 0x00000000 (0000ms, 1479ms total)
T1B90 003:246 JLINK_ReadReg(FPS13)  returns 0x00000000 (0000ms, 1479ms total)
T1B90 003:246 JLINK_ReadReg(FPS14)  returns 0x00000000 (0000ms, 1479ms total)
T1B90 003:246 JLINK_ReadReg(FPS15)  returns 0x00000000 (0000ms, 1479ms total)
T1B90 003:246 JLINK_ReadReg(FPS16)  returns 0x00000000 (0000ms, 1479ms total)
T2460 003:248 JLINK_ReadMemU32(0xE0001004, 0x0001 Items, ...) -- CPU_ReadMem(4 bytes @ 0xE0001004) -- Data:  71 D7 2D 02  returns 0x01 (0002ms, 1479ms total)
T2460 003:257 JLINK_ReadMem (0x0804BEC4, 0x003C Bytes, ...) -- CPU_ReadMem(64 bytes @ 0x0804BEC0) -- Updating C cache (64 bytes @ 0x0804BEC0) -- Read from C cache (60 bytes @ 0x0804BEC4) -- Data:  10 B5 0D 48 F0 F7 A4 FA F4 F7 C2 F8 D8 F7 54 FE ...  returns 0x00 (0003ms, 1481ms total)
T1B90 009:178 JLINK_SetBPEx(Addr = 0x0802718A, Type = 0xFFFFFFF2)  returns 0x00000003 (0001ms, 1484ms total)
T1B90 009:179 JLINK_Go() -- CPU_WriteMem(4 bytes @ 0xE000200C) -- CPU_WriteMem(4 bytes @ 0xE0002008) -- CPU_WriteMem(4 bytes @ 0xE0002008) -- CPU_WriteMem(4 bytes @ 0xE000200C) -- CPU_WriteMem(4 bytes @ 0xE0002010) -- CPU_WriteMem(4 bytes @ 0xE0002014) -- CPU_WriteMem(4 bytes @ 0xE0002018) -- CPU_WriteMem(4 bytes @ 0xE000201C) (0014ms, 1485ms total)
T1B90 009:293 JLINK_IsHalted()  returns TRUE (0006ms, 1499ms total)
T1B90 009:299 JLINK_Halt()  returns 0x00 (0000ms, 1499ms total)
T1B90 009:299 JLINK_IsHalted()  returns TRUE (0000ms, 1499ms total)
T1B90 009:299 JLINK_IsHalted()  returns TRUE (0000ms, 1499ms total)
T1B90 009:299 JLINK_IsHalted()  returns TRUE (0000ms, 1499ms total)
T1B90 009:299 JLINK_ReadReg(R15)  returns 0x0802718A (0000ms, 1499ms total)
T1B90 009:299 JLINK_ReadReg(XPSR)  returns 0x81000000 (0000ms, 1499ms total)
T1B90 009:299 JLINK_ClrBPEx(BPHandle = 0x00000003)  returns 0x00 (0000ms, 1499ms total)
T1B90 009:299 JLINK_ReadMemU32(0xE000ED30, 0x0001 Items, ...) -- CPU_ReadMem(4 bytes @ 0xE000ED30) -- Data:  03 00 00 00  returns 0x01 (0002ms, 1499ms total)
T1B90 009:301 JLINK_ReadMemU32(0xE0001028, 0x0001 Items, ...) -- CPU_ReadMem(4 bytes @ 0xE0001028) -- Data:  00 00 00 00  returns 0x01 (0001ms, 1501ms total)
T1B90 009:302 JLINK_ReadMemU32(0xE0001038, 0x0001 Items, ...) -- CPU_ReadMem(4 bytes @ 0xE0001038) -- Data:  00 02 00 00  returns 0x01 (0002ms, 1502ms total)
T1B90 009:304 JLINK_ReadMemU32(0xE0001048, 0x0001 Items, ...) -- CPU_ReadMem(4 bytes @ 0xE0001048) -- Data:  00 00 00 00  returns 0x01 (0001ms, 1504ms total)
T1B90 009:305 JLINK_ReadMemU32(0xE0001058, 0x0001 Items, ...) -- CPU_ReadMem(4 bytes @ 0xE0001058) -- Data:  00 00 00 00  returns 0x01 (0002ms, 1505ms total)
T1B90 009:307 JLINK_ReadReg(R0)  returns 0x100007E0 (0000ms, 1507ms total)
T1B90 009:307 JLINK_ReadReg(R1)  returns 0x20002310 (0000ms, 1507ms total)
T1B90 009:307 JLINK_ReadReg(R2)  returns 0x2000EED5 (0000ms, 1507ms total)
T1B90 009:307 JLINK_ReadReg(R3)  returns 0x00000000 (0000ms, 1507ms total)
T1B90 009:307 JLINK_ReadReg(R4)  returns 0x000007E0 (0000ms, 1507ms total)
T1B90 009:307 JLINK_ReadReg(R5)  returns 0x00000000 (0000ms, 1507ms total)
T1B90 009:307 JLINK_ReadReg(R6)  returns 0x10000000 (0000ms, 1507ms total)
T1B90 009:307 JLINK_ReadReg(R7)  returns 0x00000000 (0000ms, 1507ms total)
T1B90 009:307 JLINK_ReadReg(R8)  returns 0x00000000 (0000ms, 1507ms total)
T1B90 009:307 JLINK_ReadReg(R9)  returns 0x00000000 (0000ms, 1507ms total)
T1B90 009:307 JLINK_ReadReg(R10)  returns 0x08055084 (0000ms, 1507ms total)
T1B90 009:307 JLINK_ReadReg(R11)  returns 0x00000000 (0000ms, 1507ms total)
T1B90 009:307 JLINK_ReadReg(R12)  returns 0x00000001 (0000ms, 1507ms total)
T1B90 009:307 JLINK_ReadReg(R13)  returns 0x20011250 (0000ms, 1507ms total)
T1B90 009:307 JLINK_ReadReg(R14)  returns 0x0802715D (0000ms, 1507ms total)
T1B90 009:307 JLINK_ReadReg(R15)  returns 0x0802718A (0000ms, 1507ms total)
T1B90 009:307 JLINK_ReadReg(XPSR)  returns 0x81000000 (0000ms, 1507ms total)
T1B90 009:307 JLINK_ReadReg(MSP)  returns 0x20011250 (0000ms, 1507ms total)
T1B90 009:307 JLINK_ReadReg(PSP)  returns 0x00000000 (0000ms, 1507ms total)
T1B90 009:307 JLINK_ReadReg(CFBP)  returns 0x04000001 (0000ms, 1507ms total)
T1B90 009:307 JLINK_ReadReg(FPSCR)  returns 0x03000000 (0009ms, 1507ms total)
T1B90 009:316 JLINK_ReadReg(FPS0)  returns 0x00000000 (0000ms, 1516ms total)
T1B90 009:316 JLINK_ReadReg(FPS1)  returns 0x00000000 (0000ms, 1516ms total)
T1B90 009:316 JLINK_ReadReg(FPS2)  returns 0x00000000 (0000ms, 1516ms total)
T1B90 009:316 JLINK_ReadReg(FPS3)  returns 0x00000000 (0000ms, 1516ms total)
T1B90 009:316 JLINK_ReadReg(FPS4)  returns 0x00000000 (0000ms, 1516ms total)
T1B90 009:316 JLINK_ReadReg(FPS5)  returns 0x00000000 (0000ms, 1516ms total)
T1B90 009:316 JLINK_ReadReg(FPS6)  returns 0x00000000 (0000ms, 1516ms total)
T1B90 009:316 JLINK_ReadReg(FPS7)  returns 0x00000000 (0000ms, 1516ms total)
T1B90 009:316 JLINK_ReadReg(FPS8)  returns 0x00000000 (0001ms, 1516ms total)
T1B90 009:317 JLINK_ReadReg(FPS9)  returns 0x00000000 (0000ms, 1517ms total)
T1B90 009:317 JLINK_ReadReg(FPS10)  returns 0x00000000 (0000ms, 1517ms total)
T1B90 009:317 JLINK_ReadReg(FPS11)  returns 0x00000000 (0000ms, 1517ms total)
T1B90 009:317 JLINK_ReadReg(FPS12)  returns 0x00000000 (0000ms, 1517ms total)
T1B90 009:317 JLINK_ReadReg(FPS13)  returns 0x00000000 (0000ms, 1517ms total)
T1B90 009:317 JLINK_ReadReg(FPS14)  returns 0x00000000 (0000ms, 1517ms total)
T1B90 009:317 JLINK_ReadReg(FPS15)  returns 0x00000000 (0000ms, 1517ms total)
T1B90 009:317 JLINK_ReadReg(FPS16)  returns 0x00000000 (0000ms, 1517ms total)
T1B90 009:317 JLINK_ReadReg(FPS17)  returns 0x00000000 (0000ms, 1517ms total)
T1B90 009:317 JLINK_ReadReg(FPS18)  returns 0x00000000 (0000ms, 1517ms total)
T1B90 009:317 JLINK_ReadReg(FPS19)  returns 0x00000000 (0000ms, 1517ms total)
T1B90 009:317 JLINK_ReadReg(FPS20)  returns 0x00000000 (0000ms, 1517ms total)
T1B90 009:317 JLINK_ReadReg(FPS31)  returns 0x00000000 (0000ms, 1517ms total)
T1B90 009:317 JLINK_ReadReg(FPS7)  returns 0x00000000 (0000ms, 1517ms total)
T1B90 009:317 JLINK_ReadReg(FPS8)  returns 0x00000000 (0000ms, 1517ms total)
T1B90 009:317 JLINK_ReadReg(FPS9)  returns 0x00000000 (0000ms, 1517ms total)
T1B90 009:317 JLINK_ReadReg(FPS10)  returns 0x00000000 (0000ms, 1517ms total)
T1B90 009:317 JLINK_ReadReg(FPS11)  returns 0x00000000 (0000ms, 1517ms total)
T1B90 009:317 JLINK_ReadReg(FPS12)  returns 0x00000000 (0000ms, 1517ms total)
T1B90 009:317 JLINK_ReadReg(FPS13)  returns 0x00000000 (0000ms, 1517ms total)
T1B90 009:317 JLINK_ReadReg(FPS14)  returns 0x00000000 (0000ms, 1517ms total)
T1B90 009:317 JLINK_ReadReg(FPS15)  returns 0x00000000 (0000ms, 1517ms total)
T1B90 009:317 JLINK_ReadReg(FPS16)  returns 0x00000000 (0000ms, 1517ms total)
T2460 009:318 JLINK_ReadMem (0x2001125C, 0x0004 Bytes, ...) -- CPU_ReadMem(64 bytes @ 0x20011240) -- Updating C cache (64 bytes @ 0x20011240) -- Read from C cache (4 bytes @ 0x2001125C) -- Data:  63 85 02 08  returns 0x00 (0002ms, 1517ms total)
T2460 009:321 JLINK_ReadMem (0x20011250, 0x0004 Bytes, ...) -- Read from C cache (4 bytes @ 0x20011250) -- Data:  00 00 00 00  returns 0x00 (0000ms, 1519ms total)
T2460 009:321 JLINK_ReadMem (0x20011254, 0x0004 Bytes, ...) -- Read from C cache (4 bytes @ 0x20011254) -- Data:  18 0C 01 20  returns 0x00 (0000ms, 1519ms total)
T2460 009:321 JLINK_ReadMem (0x20011258, 0x0004 Bytes, ...) -- Read from C cache (4 bytes @ 0x20011258) -- Data:  00 00 00 00  returns 0x00 (0000ms, 1519ms total)
T2460 009:321 JLINK_ReadMem (0x20011264, 0x0004 Bytes, ...) -- Read from C cache (4 bytes @ 0x20011264) -- Data:  67 00 04 08  returns 0x00 (0000ms, 1519ms total)
T2460 009:321 JLINK_ReadMem (0x20011260, 0x0004 Bytes, ...) -- Read from C cache (4 bytes @ 0x20011260) -- Data:  00 00 00 00  returns 0x00 (0001ms, 1519ms total)
T2460 009:322 JLINK_ReadMem (0x2001126C, 0x0004 Bytes, ...) -- Read from C cache (4 bytes @ 0x2001126C) -- Data:  D1 BE 04 08  returns 0x00 (0000ms, 1520ms total)
T2460 009:322 JLINK_ReadMem (0x20011268, 0x0004 Bytes, ...) -- Read from C cache (4 bytes @ 0x20011268) -- Data:  00 00 00 00  returns 0x00 (0000ms, 1520ms total)
T2460 009:322 JLINK_ReadMem (0x20011274, 0x0004 Bytes, ...) -- Read from C cache (4 bytes @ 0x20011274) -- Data:  07 03 02 08  returns 0x00 (0000ms, 1520ms total)
T2460 009:322 JLINK_ReadMem (0x10000000, 0x0020 Bytes, ...) -- CPU_ReadMem(32 bytes @ 0x10000000) -- Data:  C1 01 33 01 24 27 00 20 00 00 01 01 01 01 00 01 ...  returns 0x00 (0002ms, 1520ms total)
T2460 009:324 JLINK_ReadMemU32(0xE0001004, 0x0001 Items, ...) -- CPU_ReadMem(4 bytes @ 0xE0001004) -- Data:  2B 9D 2E 02  returns 0x01 (0002ms, 1522ms total)
T2460 009:330 JLINK_ReadMem (0x0802718A, 0x0002 Bytes, ...) -- CPU_ReadMem(64 bytes @ 0x08027180) -- Updating C cache (64 bytes @ 0x08027180) -- Read from C cache (2 bytes @ 0x0802718A) -- Data:  21 46  returns 0x00 (0002ms, 1524ms total)
T2460 009:332 JLINK_ReadMem (0x0802718C, 0x003C Bytes, ...) -- CPU_ReadMem(64 bytes @ 0x080271C0) -- Updating C cache (64 bytes @ 0x080271C0) -- Read from C cache (60 bytes @ 0x0802718C) -- Data:  30 46 F9 F7 33 FD 28 46 F9 F7 0E F9 30 46 EF E7 ...  returns 0x00 (0002ms, 1526ms total)
T1B90 013:429 JLINK_Step() -- Read from C cache (2 bytes @ 0x0802718A) -- Not simulated -- CPU_WriteMem(4 bytes @ 0xE0002008) -- CPU_WriteMem(4 bytes @ 0xE000200C) -- CPU_WriteMem(4 bytes @ 0xE0002010) -- CPU_WriteMem(4 bytes @ 0xE0002014) -- CPU_WriteMem(4 bytes @ 0xE0002018) -- CPU_WriteMem(4 bytes @ 0xE000201C)  returns 0x00 (0019ms, 1528ms total)
T1B90 013:448 JLINK_ReadReg(R15)  returns 0x0802718C (0000ms, 1547ms total)
T1B90 013:448 JLINK_ReadReg(XPSR)  returns 0x81000000 (0000ms, 1547ms total)
T1B90 013:448 JLINK_SetBPEx(Addr = 0x0802718A, Type = 0xFFFFFFF2)  returns 0x00000004 (0000ms, 1547ms total)
T1B90 013:448 JLINK_Go() -- CPU_WriteMem(4 bytes @ 0xE0002008) -- CPU_WriteMem(4 bytes @ 0xE000200C) -- CPU_WriteMem(4 bytes @ 0xE0002010) -- CPU_WriteMem(4 bytes @ 0xE0002014) -- CPU_WriteMem(4 bytes @ 0xE0002018) -- CPU_WriteMem(4 bytes @ 0xE000201C) (0010ms, 1547ms total)
T1B90 013:558 JLINK_IsHalted()  returns TRUE (0007ms, 1557ms total)
T1B90 013:565 JLINK_Halt()  returns 0x00 (0000ms, 1557ms total)
T1B90 013:565 JLINK_IsHalted()  returns TRUE (0000ms, 1557ms total)
T1B90 013:565 JLINK_IsHalted()  returns TRUE (0000ms, 1557ms total)
T1B90 013:565 JLINK_IsHalted()  returns TRUE (0000ms, 1557ms total)
T1B90 013:565 JLINK_ReadReg(R15)  returns 0x0802718A (0000ms, 1557ms total)
T1B90 013:565 JLINK_ReadReg(XPSR)  returns 0x81000000 (0000ms, 1557ms total)
T1B90 013:565 JLINK_ClrBPEx(BPHandle = 0x00000004)  returns 0x00 (0000ms, 1557ms total)
T1B90 013:565 JLINK_ReadMemU32(0xE000ED30, 0x0001 Items, ...) -- CPU_ReadMem(4 bytes @ 0xE000ED30) -- Data:  03 00 00 00  returns 0x01 (0001ms, 1557ms total)
T1B90 013:566 JLINK_ReadMemU32(0xE0001028, 0x0001 Items, ...) -- CPU_ReadMem(4 bytes @ 0xE0001028) -- Data:  00 00 00 00  returns 0x01 (0002ms, 1558ms total)
T1B90 013:568 JLINK_ReadMemU32(0xE0001038, 0x0001 Items, ...) -- CPU_ReadMem(4 bytes @ 0xE0001038) -- Data:  00 02 00 00  returns 0x01 (0002ms, 1560ms total)
T1B90 013:570 JLINK_ReadMemU32(0xE0001048, 0x0001 Items, ...) -- CPU_ReadMem(4 bytes @ 0xE0001048) -- Data:  00 00 00 00  returns 0x01 (0001ms, 1562ms total)
T1B90 013:571 JLINK_ReadMemU32(0xE0001058, 0x0001 Items, ...) -- CPU_ReadMem(4 bytes @ 0xE0001058) -- Data:  00 00 00 00  returns 0x01 (0002ms, 1563ms total)
T1B90 013:573 JLINK_ReadReg(R0)  returns 0x10001240 (0000ms, 1565ms total)
T1B90 013:573 JLINK_ReadReg(R1)  returns 0x20002310 (0000ms, 1565ms total)
T1B90 013:573 JLINK_ReadReg(R2)  returns 0x0000000F (0000ms, 1565ms total)
T1B90 013:573 JLINK_ReadReg(R3)  returns 0x00000201 (0000ms, 1565ms total)
T1B90 013:573 JLINK_ReadReg(R4)  returns 0x00000A60 (0000ms, 1565ms total)
T1B90 013:573 JLINK_ReadReg(R5)  returns 0x00000000 (0000ms, 1565ms total)
T1B90 013:573 JLINK_ReadReg(R6)  returns 0x100007E0 (0000ms, 1565ms total)
T1B90 013:573 JLINK_ReadReg(R7)  returns 0x00000000 (0000ms, 1565ms total)
T1B90 013:573 JLINK_ReadReg(R8)  returns 0x00000000 (0000ms, 1565ms total)
T1B90 013:573 JLINK_ReadReg(R9)  returns 0x00000000 (0000ms, 1565ms total)
T1B90 013:573 JLINK_ReadReg(R10)  returns 0x08055084 (0000ms, 1565ms total)
T1B90 013:573 JLINK_ReadReg(R11)  returns 0x00000000 (0000ms, 1565ms total)
T1B90 013:573 JLINK_ReadReg(R12)  returns 0x00000000 (0000ms, 1565ms total)
T1B90 013:573 JLINK_ReadReg(R13)  returns 0x20011250 (0000ms, 1565ms total)
T1B90 013:573 JLINK_ReadReg(R14)  returns 0x0802715D (0000ms, 1565ms total)
T1B90 013:573 JLINK_ReadReg(R15)  returns 0x0802718A (0000ms, 1565ms total)
T1B90 013:573 JLINK_ReadReg(XPSR)  returns 0x81000000 (0000ms, 1565ms total)
T1B90 013:573 JLINK_ReadReg(MSP)  returns 0x20011250 (0000ms, 1565ms total)
T1B90 013:573 JLINK_ReadReg(PSP)  returns 0x00000000 (0000ms, 1565ms total)
T1B90 013:573 JLINK_ReadReg(CFBP)  returns 0x04000001 (0000ms, 1565ms total)
T1B90 013:573 JLINK_ReadReg(FPSCR)  returns 0x03000000 (0009ms, 1565ms total)
T1B90 013:582 JLINK_ReadReg(FPS0)  returns 0x00000000 (0000ms, 1574ms total)
T1B90 013:582 JLINK_ReadReg(FPS1)  returns 0x00000000 (0000ms, 1574ms total)
T1B90 013:582 JLINK_ReadReg(FPS2)  returns 0x00000000 (0000ms, 1574ms total)
T1B90 013:582 JLINK_ReadReg(FPS3)  returns 0x00000000 (0000ms, 1574ms total)
T1B90 013:582 JLINK_ReadReg(FPS4)  returns 0x00000000 (0000ms, 1574ms total)
T1B90 013:582 JLINK_ReadReg(FPS5)  returns 0x00000000 (0000ms, 1574ms total)
T1B90 013:582 JLINK_ReadReg(FPS6)  returns 0x00000000 (0000ms, 1574ms total)
T1B90 013:582 JLINK_ReadReg(FPS7)  returns 0x00000000 (0000ms, 1574ms total)
T1B90 013:582 JLINK_ReadReg(FPS8)  returns 0x00000000 (0001ms, 1574ms total)
T1B90 013:583 JLINK_ReadReg(FPS9)  returns 0x00000000 (0000ms, 1575ms total)
T1B90 013:583 JLINK_ReadReg(FPS10)  returns 0x00000000 (0000ms, 1575ms total)
T1B90 013:583 JLINK_ReadReg(FPS11)  returns 0x00000000 (0000ms, 1575ms total)
T1B90 013:583 JLINK_ReadReg(FPS12)  returns 0x00000000 (0000ms, 1575ms total)
T1B90 013:583 JLINK_ReadReg(FPS13)  returns 0x00000000 (0000ms, 1575ms total)
T1B90 013:583 JLINK_ReadReg(FPS14)  returns 0x00000000 (0000ms, 1575ms total)
T1B90 013:583 JLINK_ReadReg(FPS15)  returns 0x00000000 (0000ms, 1575ms total)
T1B90 013:583 JLINK_ReadReg(FPS16)  returns 0x00000000 (0000ms, 1575ms total)
T1B90 013:583 JLINK_ReadReg(FPS17)  returns 0x00000000 (0000ms, 1575ms total)
T1B90 013:583 JLINK_ReadReg(FPS18)  returns 0x00000000 (0000ms, 1575ms total)
T1B90 013:583 JLINK_ReadReg(FPS19)  returns 0x00000000 (0000ms, 1575ms total)
T1B90 013:583 JLINK_ReadReg(FPS20)  returns 0x00000000 (0000ms, 1575ms total)
T1B90 013:583 JLINK_ReadReg(FPS31)  returns 0x00000000 (0000ms, 1575ms total)
T1B90 013:583 JLINK_ReadReg(FPS7)  returns 0x00000000 (0000ms, 1575ms total)
T1B90 013:583 JLINK_ReadReg(FPS8)  returns 0x00000000 (0000ms, 1575ms total)
T1B90 013:583 JLINK_ReadReg(FPS9)  returns 0x00000000 (0000ms, 1575ms total)
T1B90 013:583 JLINK_ReadReg(FPS10)  returns 0x00000000 (0000ms, 1575ms total)
T1B90 013:583 JLINK_ReadReg(FPS11)  returns 0x00000000 (0000ms, 1575ms total)
T1B90 013:583 JLINK_ReadReg(FPS12)  returns 0x00000000 (0000ms, 1575ms total)
T1B90 013:583 JLINK_ReadReg(FPS13)  returns 0x00000000 (0000ms, 1575ms total)
T1B90 013:583 JLINK_ReadReg(FPS14)  returns 0x00000000 (0000ms, 1575ms total)
T1B90 013:583 JLINK_ReadReg(FPS15)  returns 0x00000000 (0000ms, 1575ms total)
T1B90 013:583 JLINK_ReadReg(FPS16)  returns 0x00000000 (0000ms, 1575ms total)
T2460 013:584 JLINK_ReadMem (0x2001125C, 0x0004 Bytes, ...) -- CPU_ReadMem(64 bytes @ 0x20011240) -- Updating C cache (64 bytes @ 0x20011240) -- Read from C cache (4 bytes @ 0x2001125C) -- Data:  B3 3D 02 08  returns 0x00 (0002ms, 1575ms total)
T2460 013:587 JLINK_ReadMem (0x20011250, 0x0004 Bytes, ...) -- Read from C cache (4 bytes @ 0x20011250) -- Data:  00 00 00 00  returns 0x00 (0000ms, 1577ms total)
T2460 013:587 JLINK_ReadMem (0x20011254, 0x0004 Bytes, ...) -- Read from C cache (4 bytes @ 0x20011254) -- Data:  18 0C 01 20  returns 0x00 (0000ms, 1577ms total)
T2460 013:587 JLINK_ReadMem (0x20011258, 0x0004 Bytes, ...) -- Read from C cache (4 bytes @ 0x20011258) -- Data:  00 00 00 00  returns 0x00 (0000ms, 1577ms total)
T2460 013:587 JLINK_ReadMem (0x2001126C, 0x0004 Bytes, ...) -- Read from C cache (4 bytes @ 0x2001126C) -- Data:  D9 BE 04 08  returns 0x00 (0000ms, 1577ms total)
T2460 013:587 JLINK_ReadMem (0x20011268, 0x0004 Bytes, ...) -- Read from C cache (4 bytes @ 0x20011268) -- Data:  00 00 00 00  returns 0x00 (0000ms, 1577ms total)
T2460 013:587 JLINK_ReadMem (0x20011274, 0x0004 Bytes, ...) -- Read from C cache (4 bytes @ 0x20011274) -- Data:  07 03 02 08  returns 0x00 (0000ms, 1577ms total)
T2460 013:588 JLINK_ReadMem (0x100007E0, 0x0020 Bytes, ...) -- CPU_ReadMem(32 bytes @ 0x100007E0) -- Data:  2C 09 00 10 00 00 00 00 00 00 00 00 00 00 00 00 ...  returns 0x00 (0002ms, 1577ms total)
T2460 013:590 JLINK_ReadMemU32(0xE0001004, 0x0001 Items, ...) -- CPU_ReadMem(4 bytes @ 0xE0001004) -- Data:  8E C3 2E 02  returns 0x01 (0002ms, 1579ms total)
T1B90 015:031 JLINK_Step() -- CPU_ReadMem(64 bytes @ 0x08027180) -- Updating C cache (64 bytes @ 0x08027180) -- Read from C cache (2 bytes @ 0x0802718A) -- Not simulated -- CPU_WriteMem(4 bytes @ 0xE0002008) -- CPU_WriteMem(4 bytes @ 0xE000200C) -- CPU_WriteMem(4 bytes @ 0xE0002010) -- CPU_WriteMem(4 bytes @ 0xE0002014) -- CPU_WriteMem(4 bytes @ 0xE0002018) -- CPU_WriteMem(4 bytes @ 0xE000201C)  returns 0x00 (0023ms, 1581ms total)
T1B90 015:054 JLINK_ReadReg(R15)  returns 0x0802718C (0000ms, 1604ms total)
T1B90 015:054 JLINK_ReadReg(XPSR)  returns 0x81000000 (0000ms, 1604ms total)
T1B90 015:054 JLINK_SetBPEx(Addr = 0x0802718A, Type = 0xFFFFFFF2)  returns 0x00000005 (0000ms, 1604ms total)
T1B90 015:054 JLINK_Go() -- CPU_WriteMem(4 bytes @ 0xE0002008) -- CPU_WriteMem(4 bytes @ 0xE000200C) -- CPU_WriteMem(4 bytes @ 0xE0002010) -- CPU_WriteMem(4 bytes @ 0xE0002014) -- CPU_WriteMem(4 bytes @ 0xE0002018) -- CPU_WriteMem(4 bytes @ 0xE000201C) (0009ms, 1604ms total)
T1B90 015:163 JLINK_IsHalted()  returns TRUE (0006ms, 1613ms total)
T1B90 015:169 JLINK_Halt()  returns 0x00 (0000ms, 1613ms total)
T1B90 015:169 JLINK_IsHalted()  returns TRUE (0000ms, 1613ms total)
T1B90 015:169 JLINK_IsHalted()  returns TRUE (0000ms, 1613ms total)
T1B90 015:169 JLINK_IsHalted()  returns TRUE (0000ms, 1613ms total)
T1B90 015:169 JLINK_ReadReg(R15)  returns 0x0802718A (0000ms, 1613ms total)
T1B90 015:169 JLINK_ReadReg(XPSR)  returns 0x81000000 (0000ms, 1613ms total)
T1B90 015:169 JLINK_ClrBPEx(BPHandle = 0x00000005)  returns 0x00 (0000ms, 1613ms total)
T1B90 015:169 JLINK_ReadMemU32(0xE000ED30, 0x0001 Items, ...) -- CPU_ReadMem(4 bytes @ 0xE000ED30) -- Data:  03 00 00 00  returns 0x01 (0002ms, 1613ms total)
T1B90 015:171 JLINK_ReadMemU32(0xE0001028, 0x0001 Items, ...) -- CPU_ReadMem(4 bytes @ 0xE0001028) -- Data:  00 00 00 00  returns 0x01 (0001ms, 1615ms total)
T1B90 015:172 JLINK_ReadMemU32(0xE0001038, 0x0001 Items, ...) -- CPU_ReadMem(4 bytes @ 0xE0001038) -- Data:  00 02 00 00  returns 0x01 (0003ms, 1616ms total)
T1B90 015:175 JLINK_ReadMemU32(0xE0001048, 0x0001 Items, ...) -- CPU_ReadMem(4 bytes @ 0xE0001048) -- Data:  00 00 00 00  returns 0x01 (0002ms, 1619ms total)
T1B90 015:177 JLINK_ReadMemU32(0xE0001058, 0x0001 Items, ...) -- CPU_ReadMem(4 bytes @ 0xE0001058) -- Data:  00 00 00 00  returns 0x01 (0001ms, 1621ms total)
T1B90 015:178 JLINK_ReadReg(R0)  returns 0x10001498 (0000ms, 1622ms total)
T1B90 015:178 JLINK_ReadReg(R1)  returns 0x20002310 (0000ms, 1622ms total)
T1B90 015:178 JLINK_ReadReg(R2)  returns 0x00000000 (0000ms, 1622ms total)
T1B90 015:178 JLINK_ReadReg(R3)  returns 0x00000000 (0000ms, 1622ms total)
T1B90 015:178 JLINK_ReadReg(R4)  returns 0x00000258 (0000ms, 1622ms total)
T1B90 015:178 JLINK_ReadReg(R5)  returns 0x00000000 (0000ms, 1622ms total)
T1B90 015:178 JLINK_ReadReg(R6)  returns 0x10001240 (0000ms, 1622ms total)
T1B90 015:178 JLINK_ReadReg(R7)  returns 0x00000000 (0000ms, 1622ms total)
T1B90 015:179 JLINK_ReadReg(R8)  returns 0x00000000 (0000ms, 1623ms total)
T1B90 015:179 JLINK_ReadReg(R9)  returns 0x00000000 (0000ms, 1623ms total)
T1B90 015:179 JLINK_ReadReg(R10)  returns 0x08055084 (0000ms, 1623ms total)
T1B90 015:179 JLINK_ReadReg(R11)  returns 0x00000000 (0000ms, 1623ms total)
T1B90 015:179 JLINK_ReadReg(R12)  returns 0x00000000 (0000ms, 1623ms total)
T1B90 015:179 JLINK_ReadReg(R13)  returns 0x20011250 (0000ms, 1623ms total)
T1B90 015:179 JLINK_ReadReg(R14)  returns 0x0802715D (0000ms, 1623ms total)
T1B90 015:179 JLINK_ReadReg(R15)  returns 0x0802718A (0000ms, 1623ms total)
T1B90 015:179 JLINK_ReadReg(XPSR)  returns 0x81000000 (0000ms, 1623ms total)
T1B90 015:179 JLINK_ReadReg(MSP)  returns 0x20011250 (0000ms, 1623ms total)
T1B90 015:179 JLINK_ReadReg(PSP)  returns 0x00000000 (0000ms, 1623ms total)
T1B90 015:179 JLINK_ReadReg(CFBP)  returns 0x04000001 (0000ms, 1623ms total)
T1B90 015:179 JLINK_ReadReg(FPSCR)  returns 0x03000000 (0009ms, 1623ms total)
T1B90 015:188 JLINK_ReadReg(FPS0)  returns 0x00000000 (0000ms, 1632ms total)
T1B90 015:188 JLINK_ReadReg(FPS1)  returns 0x00000000 (0000ms, 1632ms total)
T1B90 015:188 JLINK_ReadReg(FPS2)  returns 0x00000000 (0000ms, 1632ms total)
T1B90 015:188 JLINK_ReadReg(FPS3)  returns 0x00000000 (0000ms, 1632ms total)
T1B90 015:188 JLINK_ReadReg(FPS4)  returns 0x00000000 (0000ms, 1632ms total)
T1B90 015:188 JLINK_ReadReg(FPS5)  returns 0x00000000 (0000ms, 1632ms total)
T1B90 015:188 JLINK_ReadReg(FPS6)  returns 0x00000000 (0000ms, 1632ms total)
T1B90 015:188 JLINK_ReadReg(FPS7)  returns 0x00000000 (0000ms, 1632ms total)
T1B90 015:188 JLINK_ReadReg(FPS8)  returns 0x00000000 (0000ms, 1632ms total)
T1B90 015:188 JLINK_ReadReg(FPS9)  returns 0x00000000 (0000ms, 1632ms total)
T1B90 015:188 JLINK_ReadReg(FPS10)  returns 0x00000000 (0000ms, 1632ms total)
T1B90 015:188 JLINK_ReadReg(FPS11)  returns 0x00000000 (0000ms, 1632ms total)
T1B90 015:188 JLINK_ReadReg(FPS12)  returns 0x00000000 (0000ms, 1632ms total)
T1B90 015:188 JLINK_ReadReg(FPS13)  returns 0x00000000 (0000ms, 1632ms total)
T1B90 015:188 JLINK_ReadReg(FPS14)  returns 0x00000000 (0000ms, 1632ms total)
T1B90 015:188 JLINK_ReadReg(FPS15)  returns 0x00000000 (0000ms, 1632ms total)
T1B90 015:188 JLINK_ReadReg(FPS16)  returns 0x00000000 (0000ms, 1632ms total)
T1B90 015:188 JLINK_ReadReg(FPS17)  returns 0x00000000 (0000ms, 1632ms total)
T1B90 015:188 JLINK_ReadReg(FPS18)  returns 0x00000000 (0000ms, 1632ms total)
T1B90 015:188 JLINK_ReadReg(FPS19)  returns 0x00000000 (0000ms, 1632ms total)
T1B90 015:188 JLINK_ReadReg(FPS20)  returns 0x00000000 (0000ms, 1632ms total)
T1B90 015:188 JLINK_ReadReg(FPS31)  returns 0x00000000 (0000ms, 1632ms total)
T1B90 015:188 JLINK_ReadReg(FPS7)  returns 0x00000000 (0000ms, 1632ms total)
T1B90 015:188 JLINK_ReadReg(FPS8)  returns 0x00000000 (0000ms, 1632ms total)
T1B90 015:188 JLINK_ReadReg(FPS9)  returns 0x00000000 (0000ms, 1632ms total)
T1B90 015:188 JLINK_ReadReg(FPS10)  returns 0x00000000 (0000ms, 1632ms total)
T1B90 015:188 JLINK_ReadReg(FPS11)  returns 0x00000000 (0000ms, 1632ms total)
T1B90 015:188 JLINK_ReadReg(FPS12)  returns 0x00000000 (0000ms, 1632ms total)
T1B90 015:188 JLINK_ReadReg(FPS13)  returns 0x00000000 (0000ms, 1632ms total)
T1B90 015:188 JLINK_ReadReg(FPS14)  returns 0x00000000 (0000ms, 1632ms total)
T1B90 015:188 JLINK_ReadReg(FPS15)  returns 0x00000000 (0000ms, 1632ms total)
T1B90 015:188 JLINK_ReadReg(FPS16)  returns 0x00000000 (0000ms, 1632ms total)
T2460 015:189 JLINK_ReadMem (0x2001125C, 0x0004 Bytes, ...) -- CPU_ReadMem(64 bytes @ 0x20011240) -- Updating C cache (64 bytes @ 0x20011240) -- Read from C cache (4 bytes @ 0x2001125C) -- Data:  BF 3D 02 08  returns 0x00 (0002ms, 1632ms total)
T2460 015:191 JLINK_ReadMem (0x20011250, 0x0004 Bytes, ...) -- Read from C cache (4 bytes @ 0x20011250) -- Data:  00 00 00 00  returns 0x00 (0000ms, 1634ms total)
T2460 015:191 JLINK_ReadMem (0x20011254, 0x0004 Bytes, ...) -- Read from C cache (4 bytes @ 0x20011254) -- Data:  18 0C 01 20  returns 0x00 (0000ms, 1634ms total)
T2460 015:191 JLINK_ReadMem (0x20011258, 0x0004 Bytes, ...) -- Read from C cache (4 bytes @ 0x20011258) -- Data:  00 00 00 00  returns 0x00 (0000ms, 1634ms total)
T2460 015:191 JLINK_ReadMem (0x2001126C, 0x0004 Bytes, ...) -- Read from C cache (4 bytes @ 0x2001126C) -- Data:  D9 BE 04 08  returns 0x00 (0000ms, 1634ms total)
T2460 015:191 JLINK_ReadMem (0x20011268, 0x0004 Bytes, ...) -- Read from C cache (4 bytes @ 0x20011268) -- Data:  00 00 00 00  returns 0x00 (0000ms, 1634ms total)
T2460 015:191 JLINK_ReadMem (0x20011274, 0x0004 Bytes, ...) -- Read from C cache (4 bytes @ 0x20011274) -- Data:  07 03 02 08  returns 0x00 (0000ms, 1634ms total)
T2460 015:192 JLINK_ReadMem (0x10001240, 0x0020 Bytes, ...) -- CPU_ReadMem(32 bytes @ 0x10001240) -- Data:  8B 12 00 10 00 00 00 00 00 00 00 00 00 00 00 00 ...  returns 0x00 (0001ms, 1634ms total)
T2460 015:193 JLINK_ReadMemU32(0xE0001004, 0x0001 Items, ...) -- CPU_ReadMem(4 bytes @ 0xE0001004) -- Data:  79 C8 2E 02  returns 0x01 (0002ms, 1635ms total)
T1B90 016:400 JLINK_Step() -- CPU_ReadMem(64 bytes @ 0x08027180) -- Updating C cache (64 bytes @ 0x08027180) -- Read from C cache (2 bytes @ 0x0802718A) -- Not simulated -- CPU_WriteMem(4 bytes @ 0xE0002008) -- CPU_WriteMem(4 bytes @ 0xE000200C) -- CPU_WriteMem(4 bytes @ 0xE0002010) -- CPU_WriteMem(4 bytes @ 0xE0002014) -- CPU_WriteMem(4 bytes @ 0xE0002018) -- CPU_WriteMem(4 bytes @ 0xE000201C)  returns 0x00 (0023ms, 1637ms total)
T1B90 016:423 JLINK_ReadReg(R15)  returns 0x0802718C (0000ms, 1660ms total)
T1B90 016:423 JLINK_ReadReg(XPSR)  returns 0x81000000 (0000ms, 1660ms total)
T1B90 016:423 JLINK_SetBPEx(Addr = 0x0802718A, Type = 0xFFFFFFF2)  returns 0x00000006 (0000ms, 1660ms total)
T1B90 016:423 JLINK_Go() -- CPU_WriteMem(4 bytes @ 0xE0002008) -- CPU_WriteMem(4 bytes @ 0xE000200C) -- CPU_WriteMem(4 bytes @ 0xE0002010) -- CPU_WriteMem(4 bytes @ 0xE0002014) -- CPU_WriteMem(4 bytes @ 0xE0002018) -- CPU_WriteMem(4 bytes @ 0xE000201C) (0009ms, 1660ms total)
T1B90 016:532 JLINK_IsHalted()  returns TRUE (0006ms, 1669ms total)
T1B90 016:538 JLINK_Halt()  returns 0x00 (0000ms, 1669ms total)
T1B90 016:538 JLINK_IsHalted()  returns TRUE (0000ms, 1669ms total)
T1B90 016:538 JLINK_IsHalted()  returns TRUE (0000ms, 1669ms total)
T1B90 016:538 JLINK_IsHalted()  returns TRUE (0000ms, 1669ms total)
T1B90 016:538 JLINK_ReadReg(R15)  returns 0x0802718A (0000ms, 1669ms total)
T1B90 016:538 JLINK_ReadReg(XPSR)  returns 0x81000000 (0000ms, 1669ms total)
T1B90 016:538 JLINK_ClrBPEx(BPHandle = 0x00000006)  returns 0x00 (0000ms, 1669ms total)
T1B90 016:538 JLINK_ReadMemU32(0xE000ED30, 0x0001 Items, ...) -- CPU_ReadMem(4 bytes @ 0xE000ED30) -- Data:  03 00 00 00  returns 0x01 (0001ms, 1669ms total)
T1B90 016:539 JLINK_ReadMemU32(0xE0001028, 0x0001 Items, ...) -- CPU_ReadMem(4 bytes @ 0xE0001028) -- Data:  00 00 00 00  returns 0x01 (0002ms, 1670ms total)
T1B90 016:541 JLINK_ReadMemU32(0xE0001038, 0x0001 Items, ...) -- CPU_ReadMem(4 bytes @ 0xE0001038) -- Data:  00 02 00 00  returns 0x01 (0001ms, 1672ms total)
T1B90 016:542 JLINK_ReadMemU32(0xE0001048, 0x0001 Items, ...) -- CPU_ReadMem(4 bytes @ 0xE0001048) -- Data:  00 00 00 00  returns 0x01 (0002ms, 1673ms total)
T1B90 016:544 JLINK_ReadMemU32(0xE0001058, 0x0001 Items, ...) -- CPU_ReadMem(4 bytes @ 0xE0001058) -- Data:  00 00 00 00  returns 0x01 (0002ms, 1675ms total)
T1B90 016:546 JLINK_ReadReg(R0)  returns 0x10001AC8 (0000ms, 1677ms total)
T1B90 016:546 JLINK_ReadReg(R1)  returns 0x20002310 (0000ms, 1677ms total)
T1B90 016:546 JLINK_ReadReg(R2)  returns 0x00000000 (0000ms, 1677ms total)
T1B90 016:546 JLINK_ReadReg(R3)  returns 0x00000000 (0000ms, 1677ms total)
T1B90 016:546 JLINK_ReadReg(R4)  returns 0x00000630 (0000ms, 1677ms total)
T1B90 016:546 JLINK_ReadReg(R5)  returns 0x00000000 (0000ms, 1677ms total)
T1B90 016:546 JLINK_ReadReg(R6)  returns 0x10001498 (0000ms, 1677ms total)
T1B90 016:546 JLINK_ReadReg(R7)  returns 0x00000000 (0000ms, 1677ms total)
T1B90 016:546 JLINK_ReadReg(R8)  returns 0x00000000 (0000ms, 1677ms total)
T1B90 016:546 JLINK_ReadReg(R9)  returns 0x00000000 (0000ms, 1677ms total)
T1B90 016:546 JLINK_ReadReg(R10)  returns 0x08055084 (0000ms, 1677ms total)
T1B90 016:546 JLINK_ReadReg(R11)  returns 0x00000000 (0000ms, 1677ms total)
T1B90 016:546 JLINK_ReadReg(R12)  returns 0x00000000 (0000ms, 1677ms total)
T1B90 016:546 JLINK_ReadReg(R13)  returns 0x20011250 (0000ms, 1677ms total)
T1B90 016:546 JLINK_ReadReg(R14)  returns 0x0802715D (0000ms, 1677ms total)
T1B90 016:546 JLINK_ReadReg(R15)  returns 0x0802718A (0000ms, 1677ms total)
T1B90 016:546 JLINK_ReadReg(XPSR)  returns 0x81000000 (0000ms, 1677ms total)
T1B90 016:546 JLINK_ReadReg(MSP)  returns 0x20011250 (0000ms, 1677ms total)
T1B90 016:546 JLINK_ReadReg(PSP)  returns 0x00000000 (0000ms, 1677ms total)
T1B90 016:546 JLINK_ReadReg(CFBP)  returns 0x04000001 (0000ms, 1677ms total)
T1B90 016:546 JLINK_ReadReg(FPSCR)  returns 0x03000000 (0009ms, 1677ms total)
T1B90 016:555 JLINK_ReadReg(FPS0)  returns 0x00000000 (0000ms, 1686ms total)
T1B90 016:555 JLINK_ReadReg(FPS1)  returns 0x00000000 (0000ms, 1686ms total)
T1B90 016:555 JLINK_ReadReg(FPS2)  returns 0x00000000 (0000ms, 1686ms total)
T1B90 016:555 JLINK_ReadReg(FPS3)  returns 0x00000000 (0000ms, 1686ms total)
T1B90 016:555 JLINK_ReadReg(FPS4)  returns 0x00000000 (0000ms, 1686ms total)
T1B90 016:555 JLINK_ReadReg(FPS5)  returns 0x00000000 (0000ms, 1686ms total)
T1B90 016:555 JLINK_ReadReg(FPS6)  returns 0x00000000 (0000ms, 1686ms total)
